
T0CA8 001:336 SEGGER J-Link V4.35b (beta) Log File (0001ms, 1331ms total)
T0CA8 001:336 DLL Compiled: Sep  2 2011 18:34:46 (0001ms, 1331ms total)
T0CA8 001:336 Logging started @ 2015-04-27 07:56 (0002ms, 1331ms total)
T0CA8 001:338 JLINK_SetWarnOutHandler(...) (0000ms, 1333ms total)
T0CA8 001:338 JLINK_OpenEx(...)
Firmware: J-Link ARM V8 compiled May 27 2009 17:31:22
Hardware: V8.00
S/N: 799713843
Feature(s): RDI,FlashDL,FlashBP,JFlash,GDBFULL  returns O.K. (0638ms, 1333ms total)
T0CA8 001:976 JLINK_SetErrorOutHandler(...) (0000ms, 1971ms total)
T0CA8 001:976 JLINK_ExecCommand("Device = STM32F407ZG", ...)  returns 0x00 (0000ms, 1971ms total)
T0CA8 001:978 JLINK_ExecCommand("ProjectFile = "D:\Keil 5 Stm32 Projects\STM32F407-Explorer\¼òÒ×MP3²¥·ÅÆ÷\OUTPUT\JLinkSettings.ini"", ...)  returns 0x00 (0029ms, 1971ms total)
T0CA8 002:011 JLINK_ExecCommand("DisableConnectionTimeout", ...)  returns 0x00 (0000ms, 2000ms total)
T0CA8 002:012 JLINK_TIF_Select(JLINKARM_TIF_SWD)  returns 0x00 (0005ms, 2000ms total)
T0CA8 002:017 JLINK_SetSpeed(5000) (0001ms, 2005ms total)
T0CA8 002:018 JLINK_GetHardwareVersion()  returns 0x13880 (0000ms, 2006ms total)
T0CA8 002:018 JLINK_GetDLLVersion()  returns 43502 (0000ms, 2006ms total)
T0CA8 002:018 JLINK_GetFirmwareString(...) (0000ms, 2006ms total)
T0CA8 002:025 JLINK_GetDLLVersion()  returns 43502 (0000ms, 2006ms total)
T0CA8 002:025 JLINK_GetCompileDateTime() (0000ms, 2006ms total)
T0CA8 002:027 JLINK_GetFirmwareString(...) (0000ms, 2006ms total)
T0CA8 002:029 JLINK_GetHardwareVersion()  returns 0x13880 (0000ms, 2006ms total)
T0CA8 002:037 JLINK_GetId() >0x108 TIF>Found SWD-DP with ID 0x2BA01477 >0x33 TIF> >0x33 TIF> >0x35 TIF> >0x33 TIF> >0x33 TIF> >0x35 TIF> >0x33 TIF> >0x33 TIF> >0x35 TIF> >0x33 TIF> >0x33 TIF> >0x35 TIF> >0x33 TIF> >0x33 TIF> >0x35 TIF> >0x35 TIF> >0x35 TIF> >0x35 TIF> >0x35 TIF> >0x33 TIF> >0x33 TIF> >0x35 TIF> >0x35 TIF> >0x35 TIF> >0x33 TIF> >0x33 TIF> >0x33 TIF>TPIU fitted.ETM fitted. >0x35 TIF> >0x33 TIF> >0x33 TIF> >0x35 TIF> >0x33 TIF> >0x33 TIF>  FPUnit: 6 code (BP) slots and 2 literal slots
 >0x35 TIF> >0x33 TIF> >0x33 TIF> >0x35 TIF> >0x33 TIF> >0x33 TIF> >0x35 TIF> >0x33 TIF> >0x33 TIF>Found Cortex-M4 r0p1, Little endian. >0x33 TIF>  returns 0x2BA01477 (0109ms, 2006ms total)
T0CA8 002:146 JLINK_GetDebugInfo(0x100) -- Value=0xE00FF003  returns 0x00 (0001ms, 2115ms total)
T0CA8 002:151 JLINK_ReadMem (0xE00FFFF0, 0x0010 Bytes, ...) -- CPU is running >0x26E TIF> -- Data:  0D 00 00 00 10 00 00 00 05 00 00 00 B1 00 00 00  returns 0x00 (0003ms, 2116ms total)
T0CA8 002:154 JLINK_ReadMem (0xE00FFFD0, 0x0020 Bytes, ...) -- CPU is running >0x33A TIF> -- Data:  00 00 00 00 00 00 00 00 00 00 00 00 00 00 00 00 ...  returns 0x00 (0003ms, 2119ms total)
T0CA8 002:157 JLINK_ReadMem (0xE00FF000, 0x0018 Bytes, ...) -- CPU is running >0x2D4 TIF> -- Data:  03 F0 F0 FF 03 20 F0 FF 03 30 F0 FF 03 10 F0 FF ...  returns 0x00 (0002ms, 2122ms total)
T0CA8 002:159 JLINK_ReadMemU32(0xE000ED00, 0x0001 Items, ...) -- CPU is running >0x1D5 TIF> -- Data:  41 C2 0F 41  returns 0x01 (0002ms, 2124ms total)
T0CA8 002:161 JLINK_ReadMemU32(0xE000EF40, 0x0001 Items, ...) -- CPU is running >0x1D5 TIF> -- Data:  21 00 11 10  returns 0x01 (0002ms, 2126ms total)
T0CA8 002:163 JLINK_ReadMemU32(0xE000EF44, 0x0001 Items, ...) -- CPU is running >0x1D5 TIF> -- Data:  11 00 00 11  returns 0x01 (0002ms, 2128ms total)
T0CA8 002:165 JLINK_SetResetType(JLINKARM_RESET_TYPE_NORMAL)  returns JLINKARM_RESET_TYPE_NORMAL (0000ms, 2130ms total)
T0CA8 002:165 JLINK_Reset() >0x108 TIF>Found SWD-DP with ID 0x2BA01477 >0x33 TIF> >0x33 TIF> >0x35 TIF> >0x33 TIF> >0x35 TIF> >0x33 TIF> >0x33 TIF> >0x35 TIF> >0x33 TIF> >0x33 TIF> >0x35 TIF> >0x33 TIF> >0x33 TIF> >0x35 TIF> >0x33 TIF> >0x33 TIF> >0x35 TIF> >0x35 TIF> >0x35 TIF> >0x35 TIF> >0x35 TIF> >0x33 TIF> >0x33 TIF> >0x35 TIF> >0x33 TIF> >0x33 TIF> >0x33 TIF>TPIU fitted.ETM fitted. >0x35 TIF> >0x33 TIF> >0x33 TIF> >0x35 TIF> >0x33 TIF> >0x33 TIF>  FPUnit: 6 code (BP) slots and 2 literal slots
 >0x35 TIF> >0x33 TIF> >0x33 TIF> >0x35 TIF> >0x33 TIF> >0x33 TIF> >0x35 TIF> >0x33 TIF> >0x33 TIF>Found Cortex-M4 r0p1, Little endian. -- CPU is running >0x1D7 TIF> -- CPU is running >0x1D7 TIF> >0x35 TIF> -- CPU is running >0x1D7 TIF> -- CPU is running >0x1D5 TIF> -- CPU is running >0x1D5 TIF> -- CPU is running >0x1D7 TIF> -- CPU is running >0x1D7 TIF> -- CPU is running >0x1D5 TIF> >0x13A TIF> >0x11E4 TIF> (0136ms, 2130ms total)
T0CA8 002:301 JLINK_Halt()  returns 0x00 (0000ms, 2266ms total)
T0CA8 002:301 JLINK_IsHalted()  returns TRUE (0000ms, 2266ms total)
T0CA8 002:301 JLINK_ReadMemU32(0xE000EDF0, 0x0001 Items, ...) >0x1D5 TIF> -- Data:  03 00 03 00  returns 0x01 (0002ms, 2266ms total)
T0CA8 002:303 JLINK_WriteU32(0xE000EDF0, 0xA05F0003) >0x1D7 TIF>  returns 0x00 (0002ms, 2268ms total)
T0CA8 002:305 JLINK_WriteU32(0xE000EDFC, 0x01000000) >0x1D7 TIF>  returns 0x00 (0002ms, 2270ms total)
T0CA8 002:307 JLINK_ReadMemU32(0xE0002000, 0x0001 Items, ...) >0x1D5 TIF> -- Data:  60 02 00 00  returns 0x01 (0002ms, 2272ms total)
T0CA8 002:309 JLINK_ReadMemU32(0xE0001000, 0x0001 Items, ...) >0x1D5 TIF> -- Data:  00 00 00 40  returns 0x01 (0002ms, 2274ms total)
T0CA8 002:311 JLINK_WriteU32(0xE0001028, 0x00000000) >0x1D7 TIF>  returns 0x00 (0002ms, 2276ms total)
T0CA8 002:313 JLINK_WriteU32(0xE0001038, 0x00000000) >0x1D7 TIF>  returns 0x00 (0002ms, 2278ms total)
T0CA8 002:315 JLINK_WriteU32(0xE0001048, 0x00000000) >0x1D7 TIF>  returns 0x00 (0002ms, 2280ms total)
T0CA8 002:317 JLINK_WriteU32(0xE0001058, 0x00000000) >0x1D7 TIF>  returns 0x00 (0002ms, 2282ms total)
T0CA8 002:334 JLINK_GetHWStatus(...)  returns 0x00 (0001ms, 2284ms total)
T0CA8 002:347 JLINK_GetNumBPUnits(Type = 0xFFFFFF00)  returns 0x06 (0001ms, 2285ms total)
T0CA8 002:348 JLINK_GetNumBPUnits(Type = 0xF0)  returns 0x2000 (0000ms, 2286ms total)
T0CA8 002:348 JLINK_GetNumWPUnits()  returns 0x04 (0000ms, 2286ms total)
T0CA8 002:361 JLINK_GetSpeed()  returns 0x12C0 (0000ms, 2286ms total)
T0CA8 002:370 JLINK_ReadMemU32(0xE000E004, 0x0001 Items, ...) >0x1D5 TIF> -- Data:  02 00 00 00  returns 0x01 (0002ms, 2286ms total)
T0CA8 002:372 JLINK_ReadMemU32(0xE000E004, 0x0001 Items, ...) >0x1D5 TIF> -- Data:  02 00 00 00  returns 0x01 (0002ms, 2288ms total)
T0CA8 002:374 JLINK_WriteMem(0xE0001000, 0x001C Bytes, ...) -- Data:  01 00 00 00 00 00 00 00 00 00 00 00 00 00 00 00 ... >0x315 TIF>  returns 0x1C (0002ms, 2290ms total)
T0CA8 002:376 JLINK_ReadMem (0xE0001000, 0x001C Bytes, ...) >0x307 TIF> -- Data:  01 00 00 40 00 00 00 00 00 00 00 00 00 00 00 00 ...  returns 0x00 (0002ms, 2292ms total)
T0CA8 002:378 JLINK_Halt()  returns 0x00 (0000ms, 2294ms total)
T0CA8 002:378 JLINK_IsHalted()  returns TRUE (0000ms, 2294ms total)
T0CA8 002:396 JLINK_WriteMem(0x20000000, 0x0180 Bytes, ...) -- Data:  00 BE 0A E0 0D 78 2D 06 68 40 08 24 40 00 00 D3 ... >0x1582 TIF>  returns 0x180 (0005ms, 2294ms total)
T0CA8 002:401 JLINK_WriteReg(R0, 0x08000000)  returns 0x00 (0001ms, 2299ms total)
T0CA8 002:402 JLINK_WriteReg(R1, 0x00B71B00)  returns 0x00 (0000ms, 2300ms total)
T0CA8 002:402 JLINK_WriteReg(R2, 0x00000001)  returns 0x00 (0000ms, 2300ms total)
T0CA8 002:402 JLINK_WriteReg(R3, 0x00000000)  returns 0x00 (0000ms, 2300ms total)
T0CA8 002:402 JLINK_WriteReg(R4, 0x00000000)  returns 0x00 (0000ms, 2300ms total)
T0CA8 002:402 JLINK_WriteReg(R5, 0x00000000)  returns 0x00 (0000ms, 2300ms total)
T0CA8 002:402 JLINK_WriteReg(R6, 0x00000000)  returns 0x00 (0000ms, 2300ms total)
T0CA8 002:402 JLINK_WriteReg(R7, 0x00000000)  returns 0x00 (0000ms, 2300ms total)
T0CA8 002:402 JLINK_WriteReg(R8, 0x00000000)  returns 0x00 (0000ms, 2300ms total)
T0CA8 002:402 JLINK_WriteReg(R9, 0x2000017C)  returns 0x00 (0000ms, 2300ms total)
T0CA8 002:402 JLINK_WriteReg(R10, 0x00000000)  returns 0x00 (0000ms, 2300ms total)
T0CA8 002:402 JLINK_WriteReg(R11, 0x00000000)  returns 0x00 (0000ms, 2300ms total)
T0CA8 002:402 JLINK_WriteReg(R12, 0x00000000)  returns 0x00 (0000ms, 2300ms total)
T0CA8 002:402 JLINK_WriteReg(R13, 0x20001000)  returns 0x00 (0000ms, 2300ms total)
T0CA8 002:402 JLINK_WriteReg(R14, 0x20000001)  returns 0x00 (0000ms, 2300ms total)
T0CA8 002:402 JLINK_WriteReg(R15, 0x20000054)  returns 0x00 (0000ms, 2300ms total)
T0CA8 002:402 JLINK_WriteReg(XPSR, 0x01000000)  returns 0x00 (0000ms, 2300ms total)
T0CA8 002:402 JLINK_WriteReg(MSP, 0x20001000)  returns 0x00 (0000ms, 2300ms total)
T0CA8 002:402 JLINK_WriteReg(PSP, 0x20001000)  returns 0x00 (0000ms, 2300ms total)
T0CA8 002:402 JLINK_WriteReg(BASEPRI, 0x00000000)  returns 0x00 (0000ms, 2300ms total)
T0CA8 002:402 JLINK_WriteReg(CONTROL, 0x00000000)  returns 0x00 (0000ms, 2300ms total)
T0CA8 002:402 JLINK_WriteReg(FAULTMASK, 0x00000000)  returns 0x00 (0001ms, 2300ms total)
T0CA8 002:403 JLINK_WriteReg(BASEPRI_MAX, 0x00000000)  returns 0x00 (0000ms, 2301ms total)
T0CA8 002:403 JLINK_SetBPEx(Addr = 0x20000000, Type = 0xFFFFFFF2) >0x1D5 TIF> >0x1D7 TIF> >0x1D5 TIF> >0x1D7 TIF> >0x1D5 TIF>  returns 0x00000001 (0010ms, 2301ms total)
T0CA8 002:413 JLINK_Go() >0x1D7 TIF> >0x1D7 TIF> >0x1D7 TIF> >0x1D7 TIF> >0x1D7 TIF> >0x1D7 TIF> >0x1D7 TIF> >0x278 TIF> >0x1A4 TIF> >0x1A4 TIF> >0x1A4 TIF> >0x1A4 TIF> >0x1A4 TIF> >0x1A4 TIF> >0x1A4 TIF> >0x1D7 TIF> (0032ms, 2311ms total)
T0CA8 002:445 JLINK_IsHalted() >0x13A TIF> >0x11E4 TIF> >0x1D5 TIF>  returns TRUE (0009ms, 2343ms total)
T0CA8 002:454 JLINK_ReadReg(R15)  returns 0x20000000 (0000ms, 2343ms total)
T0CA8 002:454 JLINK_ClrBPEx(BPHandle = 0x00000001)  returns 0x00 (0000ms, 2343ms total)
T0CA8 002:454 JLINK_ReadReg(R0)  returns 0x00000000 (0000ms, 2343ms total)
T0CA8 002:454 JLINK_WriteReg(R0, 0x08000000)  returns 0x00 (0000ms, 2343ms total)
T0CA8 002:454 JLINK_WriteReg(R1, 0x00004000)  returns 0x00 (0000ms, 2343ms total)
T0CA8 002:454 JLINK_WriteReg(R2, 0x000000FF)  returns 0x00 (0000ms, 2343ms total)
T0CA8 002:454 JLINK_WriteReg(R3, 0x00000000)  returns 0x00 (0000ms, 2343ms total)
T0CA8 002:454 JLINK_WriteReg(R4, 0x00000000)  returns 0x00 (0000ms, 2343ms total)
T0CA8 002:454 JLINK_WriteReg(R5, 0x00000000)  returns 0x00 (0000ms, 2343ms total)
T0CA8 002:454 JLINK_WriteReg(R6, 0x00000000)  returns 0x00 (0000ms, 2343ms total)
T0CA8 002:454 JLINK_WriteReg(R7, 0x00000000)  returns 0x00 (0000ms, 2343ms total)
T0CA8 002:455 JLINK_WriteReg(R8, 0x00000000)  returns 0x00 (0000ms, 2343ms total)
T0CA8 002:455 JLINK_WriteReg(R9, 0x2000017C)  returns 0x00 (0000ms, 2343ms total)
T0CA8 002:455 JLINK_WriteReg(R10, 0x00000000)  returns 0x00 (0000ms, 2343ms total)
T0CA8 002:455 JLINK_WriteReg(R11, 0x00000000)  returns 0x00 (0000ms, 2343ms total)
T0CA8 002:455 JLINK_WriteReg(R12, 0x00000000)  returns 0x00 (0000ms, 2343ms total)
T0CA8 002:455 JLINK_WriteReg(R13, 0x20001000)  returns 0x00 (0000ms, 2343ms total)
T0CA8 002:455 JLINK_WriteReg(R14, 0x20000001)  returns 0x00 (0000ms, 2343ms total)
T0CA8 002:455 JLINK_WriteReg(R15, 0x20000020)  returns 0x00 (0000ms, 2343ms total)
T0CA8 002:455 JLINK_WriteReg(XPSR, 0x01000000)  returns 0x00 (0000ms, 2343ms total)
T0CA8 002:455 JLINK_WriteReg(MSP, 0x20001000)  returns 0x00 (0000ms, 2343ms total)
T0CA8 002:455 JLINK_WriteReg(PSP, 0x20001000)  returns 0x00 (0000ms, 2343ms total)
T0CA8 002:455 JLINK_WriteReg(BASEPRI, 0x00000000)  returns 0x00 (0000ms, 2343ms total)
T0CA8 002:455 JLINK_WriteReg(CONTROL, 0x00000000)  returns 0x00 (0000ms, 2343ms total)
T0CA8 002:455 JLINK_WriteReg(FAULTMASK, 0x00000000)  returns 0x00 (0000ms, 2343ms total)
T0CA8 002:455 JLINK_WriteReg(BASEPRI_MAX, 0x00000000)  returns 0x00 (0000ms, 2343ms total)
T0CA8 002:455 JLINK_SetBPEx(Addr = 0x20000000, Type = 0xFFFFFFF2)  returns 0x00000002 (0000ms, 2343ms total)
T0CA8 002:455 JLINK_Go() >0x1D7 TIF> >0x1D7 TIF> >0x1D7 TIF> >0x1D7 TIF> >0x1D7 TIF> >0x1D7 TIF> >0x278 TIF> >0x1A4 TIF> >0x1A4 TIF> >0x1A4 TIF> >0x1A4 TIF> >0x1D7 TIF> (0025ms, 2343ms total)
T0CA8 002:480 JLINK_IsHalted() >0x13A TIF> >0x11E4 TIF> >0x1D5 TIF>  returns TRUE (0008ms, 2368ms total)
T0CA8 002:488 JLINK_ReadReg(R15)  returns 0x20000000 (0000ms, 2368ms total)
T0CA8 002:488 JLINK_ClrBPEx(BPHandle = 0x00000002)  returns 0x00 (0000ms, 2368ms total)
T0CA8 002:488 JLINK_ReadReg(R0)  returns 0x00000001 (0000ms, 2368ms total)
T0CA8 002:488 JLINK_WriteReg(R0, 0x08000000)  returns 0x00 (0000ms, 2368ms total)
T0CA8 002:488 JLINK_WriteReg(R1, 0x00004000)  returns 0x00 (0000ms, 2368ms total)
T0CA8 002:488 JLINK_WriteReg(R2, 0x000000FF)  returns 0x00 (0000ms, 2368ms total)
T0CA8 002:488 JLINK_WriteReg(R3, 0x00000000)  returns 0x00 (0000ms, 2368ms total)
T0CA8 002:488 JLINK_WriteReg(R4, 0x00000000)  returns 0x00 (0000ms, 2368ms total)
T0CA8 002:488 JLINK_WriteReg(R5, 0x00000000)  returns 0x00 (0000ms, 2368ms total)
T0CA8 002:488 JLINK_WriteReg(R6, 0x00000000)  returns 0x00 (0001ms, 2368ms total)
T0CA8 002:489 JLINK_WriteReg(R7, 0x00000000)  returns 0x00 (0000ms, 2369ms total)
T0CA8 002:489 JLINK_WriteReg(R8, 0x00000000)  returns 0x00 (0000ms, 2369ms total)
T0CA8 002:489 JLINK_WriteReg(R9, 0x2000017C)  returns 0x00 (0000ms, 2369ms total)
T0CA8 002:489 JLINK_WriteReg(R10, 0x00000000)  returns 0x00 (0000ms, 2369ms total)
T0CA8 002:489 JLINK_WriteReg(R11, 0x00000000)  returns 0x00 (0000ms, 2369ms total)
T0CA8 002:489 JLINK_WriteReg(R12, 0x00000000)  returns 0x00 (0000ms, 2369ms total)
T0CA8 002:489 JLINK_WriteReg(R13, 0x20001000)  returns 0x00 (0000ms, 2369ms total)
T0CA8 002:489 JLINK_WriteReg(R14, 0x20000001)  returns 0x00 (0000ms, 2369ms total)
T0CA8 002:489 JLINK_WriteReg(R15, 0x200000BC)  returns 0x00 (0000ms, 2369ms total)
T0CA8 002:489 JLINK_WriteReg(XPSR, 0x01000000)  returns 0x00 (0000ms, 2369ms total)
T0CA8 002:489 JLINK_WriteReg(MSP, 0x20001000)  returns 0x00 (0000ms, 2369ms total)
T0CA8 002:489 JLINK_WriteReg(PSP, 0x20001000)  returns 0x00 (0000ms, 2369ms total)
T0CA8 002:489 JLINK_WriteReg(BASEPRI, 0x00000000)  returns 0x00 (0000ms, 2369ms total)
T0CA8 002:489 JLINK_WriteReg(CONTROL, 0x00000000)  returns 0x00 (0000ms, 2369ms total)
T0CA8 002:489 JLINK_WriteReg(FAULTMASK, 0x00000000)  returns 0x00 (0000ms, 2369ms total)
T0CA8 002:489 JLINK_WriteReg(BASEPRI_MAX, 0x00000000)  returns 0x00 (0000ms, 2369ms total)
T0CA8 002:489 JLINK_SetBPEx(Addr = 0x20000000, Type = 0xFFFFFFF2)  returns 0x00000003 (0000ms, 2369ms total)
T0CA8 002:489 JLINK_Go() >0x1D7 TIF> >0x1D7 TIF> >0x1D7 TIF> >0x1D7 TIF> >0x1D7 TIF> >0x1D7 TIF> >0x278 TIF> >0x1A4 TIF> >0x1A4 TIF> >0x1A4 TIF> >0x1D7 TIF> (0023ms, 2369ms total)
T0CA8 002:512 JLINK_IsHalted() >0x13A TIF>  returns FALSE (0002ms, 2392ms total)
T0CA8 002:564 JLINK_IsHalted() >0x13A TIF>  returns FALSE (0002ms, 2392ms total)
T0CA8 002:616 JLINK_IsHalted() >0x13A TIF>  returns FALSE (0002ms, 2392ms total)
T0CA8 002:668 JLINK_IsHalted() >0x13A TIF>  returns FALSE (0002ms, 2392ms total)
T0CA8 002:720 JLINK_IsHalted() >0x13A TIF>  returns FALSE (0002ms, 2392ms total)
T0CA8 002:772 JLINK_IsHalted() >0x13A TIF>  returns FALSE (0002ms, 2392ms total)
T0CA8 002:824 JLINK_IsHalted() >0x13A TIF>  returns FALSE (0002ms, 2392ms total)
T0CA8 002:876 JLINK_IsHalted() >0x13A TIF>  returns FALSE (0002ms, 2392ms total)
T0CA8 002:928 JLINK_IsHalted() >0x13A TIF> >0x11E4 TIF> >0x1D5 TIF>  returns TRUE (0008ms, 2392ms total)
T0CA8 002:936 JLINK_ReadReg(R15)  returns 0x20000000 (0000ms, 2392ms total)
T0CA8 002:936 JLINK_ClrBPEx(BPHandle = 0x00000003)  returns 0x00 (0000ms, 2392ms total)
T0CA8 002:936 JLINK_ReadReg(R0)  returns 0x00000000 (0001ms, 2392ms total)
T0CA8 002:938 JLINK_WriteReg(R0, 0x08004000)  returns 0x00 (0000ms, 2393ms total)
T0CA8 002:938 JLINK_WriteReg(R1, 0x00004000)  returns 0x00 (0000ms, 2393ms total)
T0CA8 002:938 JLINK_WriteReg(R2, 0x000000FF)  returns 0x00 (0000ms, 2393ms total)
T0CA8 002:938 JLINK_WriteReg(R3, 0x00000000)  returns 0x00 (0000ms, 2393ms total)
T0CA8 002:938 JLINK_WriteReg(R4, 0x00000000)  returns 0x00 (0000ms, 2393ms total)
T0CA8 002:938 JLINK_WriteReg(R5, 0x00000000)  returns 0x00 (0000ms, 2393ms total)
T0CA8 002:938 JLINK_WriteReg(R6, 0x00000000)  returns 0x00 (0000ms, 2393ms total)
T0CA8 002:938 JLINK_WriteReg(R7, 0x00000000)  returns 0x00 (0000ms, 2393ms total)
T0CA8 002:938 JLINK_WriteReg(R8, 0x00000000)  returns 0x00 (0000ms, 2393ms total)
T0CA8 002:938 JLINK_WriteReg(R9, 0x2000017C)  returns 0x00 (0000ms, 2393ms total)
T0CA8 002:938 JLINK_WriteReg(R10, 0x00000000)  returns 0x00 (0000ms, 2393ms total)
T0CA8 002:938 JLINK_WriteReg(R11, 0x00000000)  returns 0x00 (0000ms, 2393ms total)
T0CA8 002:938 JLINK_WriteReg(R12, 0x00000000)  returns 0x00 (0000ms, 2393ms total)
T0CA8 002:938 JLINK_WriteReg(R13, 0x20001000)  returns 0x00 (0001ms, 2393ms total)
T0CA8 002:939 JLINK_WriteReg(R14, 0x20000001)  returns 0x00 (0000ms, 2394ms total)
T0CA8 002:939 JLINK_WriteReg(R15, 0x20000020)  returns 0x00 (0000ms, 2394ms total)
T0CA8 002:939 JLINK_WriteReg(XPSR, 0x01000000)  returns 0x00 (0000ms, 2394ms total)
T0CA8 002:939 JLINK_WriteReg(MSP, 0x20001000)  returns 0x00 (0000ms, 2394ms total)
T0CA8 002:939 JLINK_WriteReg(PSP, 0x20001000)  returns 0x00 (0000ms, 2394ms total)
T0CA8 002:939 JLINK_WriteReg(BASEPRI, 0x00000000)  returns 0x00 (0000ms, 2394ms total)
T0CA8 002:939 JLINK_WriteReg(CONTROL, 0x00000000)  returns 0x00 (0000ms, 2394ms total)
T0CA8 002:939 JLINK_WriteReg(FAULTMASK, 0x00000000)  returns 0x00 (0000ms, 2394ms total)
T0CA8 002:939 JLINK_WriteReg(BASEPRI_MAX, 0x00000000)  returns 0x00 (0000ms, 2394ms total)
T0CA8 002:939 JLINK_SetBPEx(Addr = 0x20000000, Type = 0xFFFFFFF2)  returns 0x00000004 (0000ms, 2394ms total)
T0CA8 002:939 JLINK_Go() >0x1D7 TIF> >0x1D7 TIF> >0x1D7 TIF> >0x1D7 TIF> >0x1D7 TIF> >0x1D7 TIF> >0x278 TIF> >0x1A4 TIF> >0x1A4 TIF> >0x1A4 TIF> >0x1A4 TIF> >0x1A4 TIF> >0x1A4 TIF> >0x1D7 TIF> (0029ms, 2394ms total)
T0CA8 002:968 JLINK_IsHalted() >0x13A TIF> >0x11E4 TIF> >0x1D5 TIF>  returns TRUE (0009ms, 2423ms total)
T0CA8 002:977 JLINK_ReadReg(R15)  returns 0x20000000 (0000ms, 2423ms total)
T0CA8 002:977 JLINK_ClrBPEx(BPHandle = 0x00000004)  returns 0x00 (0000ms, 2423ms total)
T0CA8 002:977 JLINK_ReadReg(R0)  returns 0x00000001 (0000ms, 2423ms total)
T0CA8 002:977 JLINK_WriteReg(R0, 0x08004000)  returns 0x00 (0000ms, 2423ms total)
T0CA8 002:977 JLINK_WriteReg(R1, 0x00004000)  returns 0x00 (0000ms, 2423ms total)
T0CA8 002:977 JLINK_WriteReg(R2, 0x000000FF)  returns 0x00 (0000ms, 2423ms total)
T0CA8 002:977 JLINK_WriteReg(R3, 0x00000000)  returns 0x00 (0000ms, 2423ms total)
T0CA8 002:977 JLINK_WriteReg(R4, 0x00000000)  returns 0x00 (0000ms, 2423ms total)
T0CA8 002:977 JLINK_WriteReg(R5, 0x00000000)  returns 0x00 (0000ms, 2423ms total)
T0CA8 002:977 JLINK_WriteReg(R6, 0x00000000)  returns 0x00 (0000ms, 2423ms total)
T0CA8 002:977 JLINK_WriteReg(R7, 0x00000000)  returns 0x00 (0000ms, 2423ms total)
T0CA8 002:977 JLINK_WriteReg(R8, 0x00000000)  returns 0x00 (0000ms, 2423ms total)
T0CA8 002:977 JLINK_WriteReg(R9, 0x2000017C)  returns 0x00 (0001ms, 2423ms total)
T0CA8 002:978 JLINK_WriteReg(R10, 0x00000000)  returns 0x00 (0000ms, 2424ms total)
T0CA8 002:978 JLINK_WriteReg(R11, 0x00000000)  returns 0x00 (0000ms, 2424ms total)
T0CA8 002:978 JLINK_WriteReg(R12, 0x00000000)  returns 0x00 (0000ms, 2424ms total)
T0CA8 002:978 JLINK_WriteReg(R13, 0x20001000)  returns 0x00 (0000ms, 2424ms total)
T0CA8 002:978 JLINK_WriteReg(R14, 0x20000001)  returns 0x00 (0000ms, 2424ms total)
T0CA8 002:978 JLINK_WriteReg(R15, 0x200000BC)  returns 0x00 (0000ms, 2424ms total)
T0CA8 002:978 JLINK_WriteReg(XPSR, 0x01000000)  returns 0x00 (0000ms, 2424ms total)
T0CA8 002:978 JLINK_WriteReg(MSP, 0x20001000)  returns 0x00 (0000ms, 2424ms total)
T0CA8 002:978 JLINK_WriteReg(PSP, 0x20001000)  returns 0x00 (0000ms, 2424ms total)
T0CA8 002:978 JLINK_WriteReg(BASEPRI, 0x00000000)  returns 0x00 (0000ms, 2424ms total)
T0CA8 002:978 JLINK_WriteReg(CONTROL, 0x00000000)  returns 0x00 (0000ms, 2424ms total)
T0CA8 002:978 JLINK_WriteReg(FAULTMASK, 0x00000000)  returns 0x00 (0000ms, 2424ms total)
T0CA8 002:978 JLINK_WriteReg(BASEPRI_MAX, 0x00000000)  returns 0x00 (0000ms, 2424ms total)
T0CA8 002:978 JLINK_SetBPEx(Addr = 0x20000000, Type = 0xFFFFFFF2)  returns 0x00000005 (0000ms, 2424ms total)
T0CA8 002:978 JLINK_Go() >0x1D7 TIF> >0x1D7 TIF> >0x1D7 TIF> >0x1D7 TIF> >0x1D7 TIF> >0x1D7 TIF> >0x278 TIF> >0x1A4 TIF> >0x1A4 TIF> >0x1A4 TIF> >0x1D7 TIF> (0023ms, 2424ms total)
T0CA8 003:002 JLINK_IsHalted() >0x13A TIF>  returns FALSE (0002ms, 2447ms total)
T0CA8 003:054 JLINK_IsHalted() >0x13A TIF>  returns FALSE (0002ms, 2449ms total)
T0CA8 003:106 JLINK_IsHalted() >0x13A TIF>  returns FALSE (0002ms, 2449ms total)
T0CA8 003:158 JLINK_IsHalted() >0x13A TIF>  returns FALSE (0003ms, 2449ms total)
T0CA8 003:211 JLINK_IsHalted() >0x13A TIF>  returns FALSE (0002ms, 2449ms total)
T0CA8 003:263 JLINK_IsHalted() >0x13A TIF>  returns FALSE (0002ms, 2449ms total)
T0CA8 003:315 JLINK_IsHalted() >0x13A TIF>  returns FALSE (0002ms, 2449ms total)
T0CA8 003:367 JLINK_IsHalted() >0x13A TIF>  returns FALSE (0002ms, 2449ms total)
T0CA8 003:419 JLINK_IsHalted() >0x13A TIF> >0x11E4 TIF> >0x1D5 TIF>  returns TRUE (0008ms, 2449ms total)
T0CA8 003:427 JLINK_ReadReg(R15)  returns 0x20000000 (0000ms, 2449ms total)
T0CA8 003:427 JLINK_ClrBPEx(BPHandle = 0x00000005)  returns 0x00 (0000ms, 2449ms total)
T0CA8 003:427 JLINK_ReadReg(R0)  returns 0x00000000 (0001ms, 2449ms total)
T0CA8 003:428 JLINK_WriteReg(R0, 0x08008000)  returns 0x00 (0000ms, 2450ms total)
T0CA8 003:428 JLINK_WriteReg(R1, 0x00004000)  returns 0x00 (0000ms, 2450ms total)
T0CA8 003:428 JLINK_WriteReg(R2, 0x000000FF)  returns 0x00 (0000ms, 2450ms total)
T0CA8 003:428 JLINK_WriteReg(R3, 0x00000000)  returns 0x00 (0001ms, 2450ms total)
T0CA8 003:429 JLINK_WriteReg(R4, 0x00000000)  returns 0x00 (0000ms, 2451ms total)
T0CA8 003:429 JLINK_WriteReg(R5, 0x00000000)  returns 0x00 (0000ms, 2451ms total)
T0CA8 003:429 JLINK_WriteReg(R6, 0x00000000)  returns 0x00 (0000ms, 2451ms total)
T0CA8 003:429 JLINK_WriteReg(R7, 0x00000000)  returns 0x00 (0000ms, 2451ms total)
T0CA8 003:429 JLINK_WriteReg(R8, 0x00000000)  returns 0x00 (0000ms, 2451ms total)
T0CA8 003:429 JLINK_WriteReg(R9, 0x2000017C)  returns 0x00 (0000ms, 2451ms total)
T0CA8 003:429 JLINK_WriteReg(R10, 0x00000000)  returns 0x00 (0000ms, 2451ms total)
T0CA8 003:429 JLINK_WriteReg(R11, 0x00000000)  returns 0x00 (0000ms, 2451ms total)
T0CA8 003:429 JLINK_WriteReg(R12, 0x00000000)  returns 0x00 (0000ms, 2451ms total)
T0CA8 003:429 JLINK_WriteReg(R13, 0x20001000)  returns 0x00 (0000ms, 2451ms total)
T0CA8 003:429 JLINK_WriteReg(R14, 0x20000001)  returns 0x00 (0000ms, 2451ms total)
T0CA8 003:429 JLINK_WriteReg(R15, 0x20000020)  returns 0x00 (0000ms, 2451ms total)
T0CA8 003:429 JLINK_WriteReg(XPSR, 0x01000000)  returns 0x00 (0000ms, 2451ms total)
T0CA8 003:429 JLINK_WriteReg(MSP, 0x20001000)  returns 0x00 (0000ms, 2451ms total)
T0CA8 003:429 JLINK_WriteReg(PSP, 0x20001000)  returns 0x00 (0000ms, 2451ms total)
T0CA8 003:429 JLINK_WriteReg(BASEPRI, 0x00000000)  returns 0x00 (0000ms, 2451ms total)
T0CA8 003:429 JLINK_WriteReg(CONTROL, 0x00000000)  returns 0x00 (0000ms, 2451ms total)
T0CA8 003:429 JLINK_WriteReg(FAULTMASK, 0x00000000)  returns 0x00 (0000ms, 2451ms total)
T0CA8 003:429 JLINK_WriteReg(BASEPRI_MAX, 0x00000000)  returns 0x00 (0000ms, 2451ms total)
T0CA8 003:429 JLINK_SetBPEx(Addr = 0x20000000, Type = 0xFFFFFFF2)  returns 0x00000006 (0000ms, 2451ms total)
T0CA8 003:429 JLINK_Go() >0x1D7 TIF> >0x1D7 TIF> >0x1D7 TIF> >0x1D7 TIF> >0x1D7 TIF> >0x1D7 TIF> >0x278 TIF> >0x1A4 TIF> >0x1A4 TIF> >0x1A4 TIF> >0x1A4 TIF> >0x1A4 TIF> >0x1A4 TIF> >0x1D7 TIF> (0029ms, 2451ms total)
T0CA8 003:458 JLINK_IsHalted() >0x13A TIF> >0x11E4 TIF> >0x1D5 TIF>  returns TRUE (0009ms, 2480ms total)
T0CA8 003:467 JLINK_ReadReg(R15)  returns 0x20000000 (0000ms, 2480ms total)
T0CA8 003:467 JLINK_ClrBPEx(BPHandle = 0x00000006)  returns 0x00 (0000ms, 2480ms total)
T0CA8 003:467 JLINK_ReadReg(R0)  returns 0x00000001 (0000ms, 2480ms total)
T0CA8 003:467 JLINK_WriteReg(R0, 0x08008000)  returns 0x00 (0000ms, 2480ms total)
T0CA8 003:467 JLINK_WriteReg(R1, 0x00004000)  returns 0x00 (0000ms, 2480ms total)
T0CA8 003:467 JLINK_WriteReg(R2, 0x000000FF)  returns 0x00 (0000ms, 2480ms total)
T0CA8 003:467 JLINK_WriteReg(R3, 0x00000000)  returns 0x00 (0000ms, 2480ms total)
T0CA8 003:467 JLINK_WriteReg(R4, 0x00000000)  returns 0x00 (0000ms, 2480ms total)
T0CA8 003:467 JLINK_WriteReg(R5, 0x00000000)  returns 0x00 (0000ms, 2480ms total)
T0CA8 003:467 JLINK_WriteReg(R6, 0x00000000)  returns 0x00 (0000ms, 2480ms total)
T0CA8 003:467 JLINK_WriteReg(R7, 0x00000000)  returns 0x00 (0000ms, 2480ms total)
T0CA8 003:467 JLINK_WriteReg(R8, 0x00000000)  returns 0x00 (0000ms, 2480ms total)
T0CA8 003:467 JLINK_WriteReg(R9, 0x2000017C)  returns 0x00 (0000ms, 2480ms total)
T0CA8 003:467 JLINK_WriteReg(R10, 0x00000000)  returns 0x00 (0000ms, 2480ms total)
T0CA8 003:467 JLINK_WriteReg(R11, 0x00000000)  returns 0x00 (0000ms, 2480ms total)
T0CA8 003:467 JLINK_WriteReg(R12, 0x00000000)  returns 0x00 (0000ms, 2480ms total)
T0CA8 003:467 JLINK_WriteReg(R13, 0x20001000)  returns 0x00 (0000ms, 2480ms total)
T0CA8 003:467 JLINK_WriteReg(R14, 0x20000001)  returns 0x00 (0000ms, 2480ms total)
T0CA8 003:467 JLINK_WriteReg(R15, 0x200000BC)  returns 0x00 (0000ms, 2480ms total)
T0CA8 003:468 JLINK_WriteReg(XPSR, 0x01000000)  returns 0x00 (0000ms, 2481ms total)
T0CA8 003:468 JLINK_WriteReg(MSP, 0x20001000)  returns 0x00 (0000ms, 2481ms total)
T0CA8 003:468 JLINK_WriteReg(PSP, 0x20001000)  returns 0x00 (0000ms, 2481ms total)
T0CA8 003:468 JLINK_WriteReg(BASEPRI, 0x00000000)  returns 0x00 (0000ms, 2481ms total)
T0CA8 003:468 JLINK_WriteReg(CONTROL, 0x00000000)  returns 0x00 (0000ms, 2481ms total)
T0CA8 003:468 JLINK_WriteReg(FAULTMASK, 0x00000000)  returns 0x00 (0000ms, 2481ms total)
T0CA8 003:468 JLINK_WriteReg(BASEPRI_MAX, 0x00000000)  returns 0x00 (0001ms, 2481ms total)
T0CA8 003:469 JLINK_SetBPEx(Addr = 0x20000000, Type = 0xFFFFFFF2)  returns 0x00000007 (0000ms, 2482ms total)
T0CA8 003:469 JLINK_Go() >0x1D7 TIF> >0x1D7 TIF> >0x1D7 TIF> >0x1D7 TIF> >0x1D7 TIF> >0x1D7 TIF> >0x278 TIF> >0x1A4 TIF> >0x1A4 TIF> >0x1A4 TIF> >0x1D7 TIF> (0022ms, 2482ms total)
T0CA8 003:491 JLINK_IsHalted() >0x13A TIF>  returns FALSE (0002ms, 2504ms total)
T0CA8 003:543 JLINK_IsHalted() >0x13A TIF>  returns FALSE (0001ms, 2504ms total)
T0CA8 003:595 JLINK_IsHalted() >0x13A TIF>  returns FALSE (0002ms, 2504ms total)
T0CA8 003:647 JLINK_IsHalted() >0x13A TIF>  returns FALSE (0002ms, 2504ms total)
T0CA8 003:699 JLINK_IsHalted() >0x13A TIF>  returns FALSE (0002ms, 2504ms total)
T0CA8 003:751 JLINK_IsHalted() >0x13A TIF>  returns FALSE (0002ms, 2504ms total)
T0CA8 003:803 JLINK_IsHalted() >0x13A TIF>  returns FALSE (0002ms, 2504ms total)
T0CA8 003:855 JLINK_IsHalted() >0x13A TIF>  returns FALSE (0002ms, 2504ms total)
T0CA8 003:907 JLINK_IsHalted() >0x13A TIF> >0x11E4 TIF> >0x1D5 TIF>  returns TRUE (0009ms, 2504ms total)
T0CA8 003:916 JLINK_ReadReg(R15)  returns 0x20000000 (0000ms, 2504ms total)
T0CA8 003:916 JLINK_ClrBPEx(BPHandle = 0x00000007)  returns 0x00 (0000ms, 2504ms total)
T0CA8 003:916 JLINK_ReadReg(R0)  returns 0x00000000 (0000ms, 2504ms total)
T0CA8 003:917 JLINK_WriteReg(R0, 0x0800C000)  returns 0x00 (0000ms, 2504ms total)
T0CA8 003:917 JLINK_WriteReg(R1, 0x00004000)  returns 0x00 (0000ms, 2504ms total)
T0CA8 003:917 JLINK_WriteReg(R2, 0x000000FF)  returns 0x00 (0000ms, 2504ms total)
T0CA8 003:917 JLINK_WriteReg(R3, 0x00000000)  returns 0x00 (0000ms, 2504ms total)
T0CA8 003:917 JLINK_WriteReg(R4, 0x00000000)  returns 0x00 (0000ms, 2504ms total)
T0CA8 003:917 JLINK_WriteReg(R5, 0x00000000)  returns 0x00 (0000ms, 2504ms total)
T0CA8 003:917 JLINK_WriteReg(R6, 0x00000000)  returns 0x00 (0000ms, 2504ms total)
T0CA8 003:917 JLINK_WriteReg(R7, 0x00000000)  returns 0x00 (0000ms, 2504ms total)
T0CA8 003:917 JLINK_WriteReg(R8, 0x00000000)  returns 0x00 (0000ms, 2504ms total)
T0CA8 003:917 JLINK_WriteReg(R9, 0x2000017C)  returns 0x00 (0000ms, 2504ms total)
T0CA8 003:917 JLINK_WriteReg(R10, 0x00000000)  returns 0x00 (0000ms, 2504ms total)
T0CA8 003:917 JLINK_WriteReg(R11, 0x00000000)  returns 0x00 (0000ms, 2504ms total)
T0CA8 003:917 JLINK_WriteReg(R12, 0x00000000)  returns 0x00 (0000ms, 2504ms total)
T0CA8 003:917 JLINK_WriteReg(R13, 0x20001000)  returns 0x00 (0000ms, 2504ms total)
T0CA8 003:917 JLINK_WriteReg(R14, 0x20000001)  returns 0x00 (0000ms, 2504ms total)
T0CA8 003:917 JLINK_WriteReg(R15, 0x20000020)  returns 0x00 (0000ms, 2504ms total)
T0CA8 003:917 JLINK_WriteReg(XPSR, 0x01000000)  returns 0x00 (0000ms, 2504ms total)
T0CA8 003:917 JLINK_WriteReg(MSP, 0x20001000)  returns 0x00 (0000ms, 2504ms total)
T0CA8 003:917 JLINK_WriteReg(PSP, 0x20001000)  returns 0x00 (0000ms, 2504ms total)
T0CA8 003:917 JLINK_WriteReg(BASEPRI, 0x00000000)  returns 0x00 (0001ms, 2504ms total)
T0CA8 003:918 JLINK_WriteReg(CONTROL, 0x00000000)  returns 0x00 (0000ms, 2505ms total)
T0CA8 003:918 JLINK_WriteReg(FAULTMASK, 0x00000000)  returns 0x00 (0000ms, 2505ms total)
T0CA8 003:918 JLINK_WriteReg(BASEPRI_MAX, 0x00000000)  returns 0x00 (0000ms, 2505ms total)
T0CA8 003:918 JLINK_SetBPEx(Addr = 0x20000000, Type = 0xFFFFFFF2)  returns 0x00000008 (0000ms, 2505ms total)
T0CA8 003:918 JLINK_Go() >0x1D7 TIF> >0x1D7 TIF> >0x1D7 TIF> >0x1D7 TIF> >0x1D7 TIF> >0x1D7 TIF> >0x278 TIF> >0x1A4 TIF> >0x1A4 TIF> >0x1A4 TIF> >0x1A4 TIF> >0x1A4 TIF> >0x1A4 TIF> >0x1D7 TIF> (0028ms, 2505ms total)
T0CA8 003:946 JLINK_IsHalted() >0x13A TIF> >0x11E4 TIF> >0x1D5 TIF>  returns TRUE (0009ms, 2533ms total)
T0CA8 003:955 JLINK_ReadReg(R15)  returns 0x20000000 (0000ms, 2533ms total)
T0CA8 003:955 JLINK_ClrBPEx(BPHandle = 0x00000008)  returns 0x00 (0000ms, 2533ms total)
T0CA8 003:955 JLINK_ReadReg(R0)  returns 0x00000001 (0000ms, 2533ms total)
T0CA8 003:955 JLINK_WriteReg(R0, 0x0800C000)  returns 0x00 (0000ms, 2533ms total)
T0CA8 003:955 JLINK_WriteReg(R1, 0x00004000)  returns 0x00 (0000ms, 2533ms total)
T0CA8 003:955 JLINK_WriteReg(R2, 0x000000FF)  returns 0x00 (0000ms, 2533ms total)
T0CA8 003:955 JLINK_WriteReg(R3, 0x00000000)  returns 0x00 (0000ms, 2533ms total)
T0CA8 003:955 JLINK_WriteReg(R4, 0x00000000)  returns 0x00 (0000ms, 2533ms total)
T0CA8 003:955 JLINK_WriteReg(R5, 0x00000000)  returns 0x00 (0000ms, 2533ms total)
T0CA8 003:955 JLINK_WriteReg(R6, 0x00000000)  returns 0x00 (0000ms, 2533ms total)
T0CA8 003:955 JLINK_WriteReg(R7, 0x00000000)  returns 0x00 (0000ms, 2533ms total)
T0CA8 003:955 JLINK_WriteReg(R8, 0x00000000)  returns 0x00 (0000ms, 2533ms total)
T0CA8 003:955 JLINK_WriteReg(R9, 0x2000017C)  returns 0x00 (0000ms, 2533ms total)
T0CA8 003:955 JLINK_WriteReg(R10, 0x00000000)  returns 0x00 (0001ms, 2533ms total)
T0CA8 003:956 JLINK_WriteReg(R11, 0x00000000)  returns 0x00 (0000ms, 2534ms total)
T0CA8 003:956 JLINK_WriteReg(R12, 0x00000000)  returns 0x00 (0000ms, 2534ms total)
T0CA8 003:956 JLINK_WriteReg(R13, 0x20001000)  returns 0x00 (0000ms, 2534ms total)
T0CA8 003:956 JLINK_WriteReg(R14, 0x20000001)  returns 0x00 (0000ms, 2534ms total)
T0CA8 003:956 JLINK_WriteReg(R15, 0x200000BC)  returns 0x00 (0000ms, 2534ms total)
T0CA8 003:956 JLINK_WriteReg(XPSR, 0x01000000)  returns 0x00 (0000ms, 2534ms total)
T0CA8 003:956 JLINK_WriteReg(MSP, 0x20001000)  returns 0x00 (0000ms, 2534ms total)
T0CA8 003:956 JLINK_WriteReg(PSP, 0x20001000)  returns 0x00 (0000ms, 2534ms total)
T0CA8 003:956 JLINK_WriteReg(BASEPRI, 0x00000000)  returns 0x00 (0000ms, 2534ms total)
T0CA8 003:956 JLINK_WriteReg(CONTROL, 0x00000000)  returns 0x00 (0000ms, 2534ms total)
T0CA8 003:956 JLINK_WriteReg(FAULTMASK, 0x00000000)  returns 0x00 (0000ms, 2534ms total)
T0CA8 003:956 JLINK_WriteReg(BASEPRI_MAX, 0x00000000)  returns 0x00 (0000ms, 2534ms total)
T0CA8 003:956 JLINK_SetBPEx(Addr = 0x20000000, Type = 0xFFFFFFF2)  returns 0x00000009 (0000ms, 2534ms total)
T0CA8 003:956 JLINK_Go() >0x1D7 TIF> >0x1D7 TIF> >0x1D7 TIF> >0x1D7 TIF> >0x1D7 TIF> >0x1D7 TIF> >0x278 TIF> >0x1A4 TIF> >0x1A4 TIF> >0x1A4 TIF> >0x1D7 TIF> (0023ms, 2534ms total)
T0CA8 003:979 JLINK_IsHalted() >0x13A TIF>  returns FALSE (0002ms, 2557ms total)
T0CA8 004:031 JLINK_IsHalted() >0x13A TIF>  returns FALSE (0002ms, 2557ms total)
T0CA8 004:083 JLINK_IsHalted() >0x13A TIF>  returns FALSE (0002ms, 2557ms total)
T0CA8 004:135 JLINK_IsHalted() >0x13A TIF>  returns FALSE (0002ms, 2557ms total)
T0CA8 004:187 JLINK_IsHalted() >0x13A TIF>  returns FALSE (0003ms, 2557ms total)
T0CA8 004:240 JLINK_IsHalted() >0x13A TIF>  returns FALSE (0002ms, 2557ms total)
T0CA8 004:292 JLINK_IsHalted() >0x13A TIF>  returns FALSE (0002ms, 2557ms total)
T0CA8 004:344 JLINK_IsHalted() >0x13A TIF>  returns FALSE (0002ms, 2557ms total)
T0CA8 004:396 JLINK_IsHalted() >0x13A TIF> >0x11E4 TIF> >0x1D5 TIF>  returns TRUE (0009ms, 2557ms total)
T0CA8 004:405 JLINK_ReadReg(R15)  returns 0x20000000 (0000ms, 2557ms total)
T0CA8 004:405 JLINK_ClrBPEx(BPHandle = 0x00000009)  returns 0x00 (0000ms, 2557ms total)
T0CA8 004:405 JLINK_ReadReg(R0)  returns 0x00000000 (0000ms, 2557ms total)
T0CA8 004:408 JLINK_WriteReg(R0, 0x08010000)  returns 0x00 (0001ms, 2557ms total)
T0CA8 004:409 JLINK_WriteReg(R1, 0x00010000)  returns 0x00 (0000ms, 2558ms total)
T0CA8 004:409 JLINK_WriteReg(R2, 0x000000FF)  returns 0x00 (0000ms, 2558ms total)
T0CA8 004:409 JLINK_WriteReg(R3, 0x00000000)  returns 0x00 (0000ms, 2558ms total)
T0CA8 004:409 JLINK_WriteReg(R4, 0x00000000)  returns 0x00 (0000ms, 2558ms total)
T0CA8 004:409 JLINK_WriteReg(R5, 0x00000000)  returns 0x00 (0000ms, 2558ms total)
T0CA8 004:409 JLINK_WriteReg(R6, 0x00000000)  returns 0x00 (0000ms, 2558ms total)
T0CA8 004:409 JLINK_WriteReg(R7, 0x00000000)  returns 0x00 (0000ms, 2558ms total)
T0CA8 004:409 JLINK_WriteReg(R8, 0x00000000)  returns 0x00 (0000ms, 2558ms total)
T0CA8 004:409 JLINK_WriteReg(R9, 0x2000017C)  returns 0x00 (0000ms, 2558ms total)
T0CA8 004:409 JLINK_WriteReg(R10, 0x00000000)  returns 0x00 (0000ms, 2558ms total)
T0CA8 004:409 JLINK_WriteReg(R11, 0x00000000)  returns 0x00 (0000ms, 2558ms total)
T0CA8 004:409 JLINK_WriteReg(R12, 0x00000000)  returns 0x00 (0000ms, 2558ms total)
T0CA8 004:409 JLINK_WriteReg(R13, 0x20001000)  returns 0x00 (0000ms, 2558ms total)
T0CA8 004:409 JLINK_WriteReg(R14, 0x20000001)  returns 0x00 (0000ms, 2558ms total)
T0CA8 004:409 JLINK_WriteReg(R15, 0x20000020)  returns 0x00 (0000ms, 2558ms total)
T0CA8 004:409 JLINK_WriteReg(XPSR, 0x01000000)  returns 0x00 (0000ms, 2558ms total)
T0CA8 004:409 JLINK_WriteReg(MSP, 0x20001000)  returns 0x00 (0000ms, 2558ms total)
T0CA8 004:409 JLINK_WriteReg(PSP, 0x20001000)  returns 0x00 (0000ms, 2558ms total)
T0CA8 004:409 JLINK_WriteReg(BASEPRI, 0x00000000)  returns 0x00 (0000ms, 2558ms total)
T0CA8 004:409 JLINK_WriteReg(CONTROL, 0x00000000)  returns 0x00 (0001ms, 2558ms total)
T0CA8 004:410 JLINK_WriteReg(FAULTMASK, 0x00000000)  returns 0x00 (0000ms, 2559ms total)
T0CA8 004:410 JLINK_WriteReg(BASEPRI_MAX, 0x00000000)  returns 0x00 (0000ms, 2559ms total)
T0CA8 004:410 JLINK_SetBPEx(Addr = 0x20000000, Type = 0xFFFFFFF2)  returns 0x0000000A (0000ms, 2559ms total)
T0CA8 004:410 JLINK_Go() >0x1D7 TIF> >0x1D7 TIF> >0x1D7 TIF> >0x1D7 TIF> >0x1D7 TIF> >0x1D7 TIF> >0x278 TIF> >0x1A4 TIF> >0x1A4 TIF> >0x1A4 TIF> >0x1A4 TIF> >0x1A4 TIF> >0x1A4 TIF> >0x1D7 TIF> (0028ms, 2559ms total)
T0CA8 004:438 JLINK_IsHalted() >0x13A TIF> >0x11E4 TIF> >0x1D5 TIF>  returns TRUE (0008ms, 2587ms total)
T0CA8 004:446 JLINK_ReadReg(R15)  returns 0x20000000 (0000ms, 2587ms total)
T0CA8 004:446 JLINK_ClrBPEx(BPHandle = 0x0000000A)  returns 0x00 (0000ms, 2587ms total)
T0CA8 004:446 JLINK_ReadReg(R0)  returns 0x00000001 (0000ms, 2587ms total)
T0CA8 004:446 JLINK_WriteReg(R0, 0x08010000)  returns 0x00 (0000ms, 2587ms total)
T0CA8 004:446 JLINK_WriteReg(R1, 0x00010000)  returns 0x00 (0000ms, 2587ms total)
T0CA8 004:446 JLINK_WriteReg(R2, 0x000000FF)  returns 0x00 (0000ms, 2587ms total)
T0CA8 004:446 JLINK_WriteReg(R3, 0x00000000)  returns 0x00 (0000ms, 2587ms total)
T0CA8 004:446 JLINK_WriteReg(R4, 0x00000000)  returns 0x00 (0001ms, 2587ms total)
T0CA8 004:447 JLINK_WriteReg(R5, 0x00000000)  returns 0x00 (0000ms, 2588ms total)
T0CA8 004:447 JLINK_WriteReg(R6, 0x00000000)  returns 0x00 (0000ms, 2588ms total)
T0CA8 004:447 JLINK_WriteReg(R7, 0x00000000)  returns 0x00 (0000ms, 2588ms total)
T0CA8 004:447 JLINK_WriteReg(R8, 0x00000000)  returns 0x00 (0000ms, 2588ms total)
T0CA8 004:447 JLINK_WriteReg(R9, 0x2000017C)  returns 0x00 (0000ms, 2588ms total)
T0CA8 004:447 JLINK_WriteReg(R10, 0x00000000)  returns 0x00 (0000ms, 2588ms total)
T0CA8 004:447 JLINK_WriteReg(R11, 0x00000000)  returns 0x00 (0000ms, 2588ms total)
T0CA8 004:447 JLINK_WriteReg(R12, 0x00000000)  returns 0x00 (0000ms, 2588ms total)
T0CA8 004:447 JLINK_WriteReg(R13, 0x20001000)  returns 0x00 (0000ms, 2588ms total)
T0CA8 004:447 JLINK_WriteReg(R14, 0x20000001)  returns 0x00 (0000ms, 2588ms total)
T0CA8 004:447 JLINK_WriteReg(R15, 0x200000BC)  returns 0x00 (0000ms, 2588ms total)
T0CA8 004:447 JLINK_WriteReg(XPSR, 0x01000000)  returns 0x00 (0000ms, 2588ms total)
T0CA8 004:447 JLINK_WriteReg(MSP, 0x20001000)  returns 0x00 (0000ms, 2588ms total)
T0CA8 004:447 JLINK_WriteReg(PSP, 0x20001000)  returns 0x00 (0000ms, 2588ms total)
T0CA8 004:447 JLINK_WriteReg(BASEPRI, 0x00000000)  returns 0x00 (0000ms, 2588ms total)
T0CA8 004:447 JLINK_WriteReg(CONTROL, 0x00000000)  returns 0x00 (0000ms, 2588ms total)
T0CA8 004:447 JLINK_WriteReg(FAULTMASK, 0x00000000)  returns 0x00 (0000ms, 2588ms total)
T0CA8 004:447 JLINK_WriteReg(BASEPRI_MAX, 0x00000000)  returns 0x00 (0000ms, 2588ms total)
T0CA8 004:447 JLINK_SetBPEx(Addr = 0x20000000, Type = 0xFFFFFFF2)  returns 0x0000000B (0000ms, 2588ms total)
T0CA8 004:447 JLINK_Go() >0x1D7 TIF> >0x1D7 TIF> >0x1D7 TIF> >0x1D7 TIF> >0x1D7 TIF> >0x1D7 TIF> >0x278 TIF> >0x1A4 TIF> >0x1A4 TIF> >0x1A4 TIF> >0x1D7 TIF> (0022ms, 2588ms total)
T0CA8 004:469 JLINK_IsHalted() >0x13A TIF>  returns FALSE (0002ms, 2610ms total)
T0CA8 004:521 JLINK_IsHalted() >0x13A TIF>  returns FALSE (0002ms, 2610ms total)
T0CA8 004:573 JLINK_IsHalted() >0x13A TIF>  returns FALSE (0002ms, 2610ms total)
T0CA8 004:625 JLINK_IsHalted() >0x13A TIF>  returns FALSE (0002ms, 2610ms total)
T0CA8 004:677 JLINK_IsHalted() >0x13A TIF>  returns FALSE (0002ms, 2610ms total)
T0CA8 004:729 JLINK_IsHalted() >0x13A TIF>  returns FALSE (0002ms, 2610ms total)
T0CA8 004:781 JLINK_IsHalted() >0x13A TIF>  returns FALSE (0002ms, 2610ms total)
T0CA8 004:833 JLINK_IsHalted() >0x13A TIF>  returns FALSE (0002ms, 2610ms total)
T0CA8 004:885 JLINK_IsHalted() >0x13A TIF>  returns FALSE (0002ms, 2610ms total)
T0CA8 004:937 JLINK_IsHalted() >0x13A TIF>  returns FALSE (0002ms, 2610ms total)
T0CA8 004:989 JLINK_IsHalted() >0x13A TIF>  returns FALSE (0002ms, 2610ms total)
T0CA8 005:041 JLINK_IsHalted() >0x13A TIF>  returns FALSE (0002ms, 2610ms total)
T0CA8 005:093 JLINK_IsHalted() >0x13A TIF>  returns FALSE (0002ms, 2610ms total)
T0CA8 005:145 JLINK_IsHalted() >0x13A TIF>  returns FALSE (0002ms, 2610ms total)
T0CA8 005:197 JLINK_IsHalted() >0x13A TIF>  returns FALSE (0002ms, 2610ms total)
T0CA8 005:249 JLINK_IsHalted() >0x13A TIF>  returns FALSE (0002ms, 2610ms total)
T0CA8 005:302 JLINK_IsHalted() >0x13A TIF>  returns FALSE (0002ms, 2610ms total)
T0CA8 005:354 JLINK_IsHalted() >0x13A TIF>  returns FALSE (0002ms, 2610ms total)
T0CA8 005:407 JLINK_IsHalted() >0x13A TIF>  returns FALSE (0002ms, 2610ms total)
T0CA8 005:459 JLINK_IsHalted() >0x13A TIF>  returns FALSE (0002ms, 2610ms total)
T0CA8 005:511 JLINK_IsHalted() >0x13A TIF>  returns FALSE (0002ms, 2610ms total)
T0CA8 005:563 JLINK_IsHalted() >0x13A TIF>  returns FALSE (0002ms, 2610ms total)
T0CA8 005:615 JLINK_IsHalted() >0x13A TIF>  returns FALSE (0001ms, 2610ms total)
T0CA8 005:667 JLINK_IsHalted() >0x13A TIF> >0x11E4 TIF> >0x1D5 TIF>  returns TRUE (0008ms, 2610ms total)
T0CA8 005:675 JLINK_ReadReg(R15)  returns 0x20000000 (0000ms, 2610ms total)
T0CA8 005:675 JLINK_ClrBPEx(BPHandle = 0x0000000B)  returns 0x00 (0000ms, 2610ms total)
T0CA8 005:675 JLINK_ReadReg(R0)  returns 0x00000000 (0000ms, 2610ms total)
T0CA8 005:676 JLINK_WriteReg(R0, 0x00000001)  returns 0x00 (0000ms, 2610ms total)
T0CA8 005:676 JLINK_WriteReg(R1, 0x00010000)  returns 0x00 (0000ms, 2610ms total)
T0CA8 005:676 JLINK_WriteReg(R2, 0x000000FF)  returns 0x00 (0000ms, 2610ms total)
T0CA8 005:676 JLINK_WriteReg(R3, 0x00000000)  returns 0x00 (0001ms, 2610ms total)
T0CA8 005:677 JLINK_WriteReg(R4, 0x00000000)  returns 0x00 (0000ms, 2611ms total)
T0CA8 005:677 JLINK_WriteReg(R5, 0x00000000)  returns 0x00 (0000ms, 2611ms total)
T0CA8 005:677 JLINK_WriteReg(R6, 0x00000000)  returns 0x00 (0000ms, 2611ms total)
T0CA8 005:677 JLINK_WriteReg(R7, 0x00000000)  returns 0x00 (0000ms, 2611ms total)
T0CA8 005:677 JLINK_WriteReg(R8, 0x00000000)  returns 0x00 (0000ms, 2611ms total)
T0CA8 005:677 JLINK_WriteReg(R9, 0x2000017C)  returns 0x00 (0000ms, 2611ms total)
T0CA8 005:677 JLINK_WriteReg(R10, 0x00000000)  returns 0x00 (0000ms, 2611ms total)
T0CA8 005:677 JLINK_WriteReg(R11, 0x00000000)  returns 0x00 (0000ms, 2611ms total)
T0CA8 005:677 JLINK_WriteReg(R12, 0x00000000)  returns 0x00 (0000ms, 2611ms total)
T0CA8 005:677 JLINK_WriteReg(R13, 0x20001000)  returns 0x00 (0000ms, 2611ms total)
T0CA8 005:677 JLINK_WriteReg(R14, 0x20000001)  returns 0x00 (0000ms, 2611ms total)
T0CA8 005:677 JLINK_WriteReg(R15, 0x20000082)  returns 0x00 (0000ms, 2611ms total)
T0CA8 005:677 JLINK_WriteReg(XPSR, 0x01000000)  returns 0x00 (0000ms, 2611ms total)
T0CA8 005:677 JLINK_WriteReg(MSP, 0x20001000)  returns 0x00 (0000ms, 2611ms total)
T0CA8 005:677 JLINK_WriteReg(PSP, 0x20001000)  returns 0x00 (0000ms, 2611ms total)
T0CA8 005:677 JLINK_WriteReg(BASEPRI, 0x00000000)  returns 0x00 (0000ms, 2611ms total)
T0CA8 005:677 JLINK_WriteReg(CONTROL, 0x00000000)  returns 0x00 (0000ms, 2611ms total)
T0CA8 005:677 JLINK_WriteReg(FAULTMASK, 0x00000000)  returns 0x00 (0000ms, 2611ms total)
T0CA8 005:677 JLINK_WriteReg(BASEPRI_MAX, 0x00000000)  returns 0x00 (0000ms, 2611ms total)
T0CA8 005:677 JLINK_SetBPEx(Addr = 0x20000000, Type = 0xFFFFFFF2)  returns 0x0000000C (0000ms, 2611ms total)
T0CA8 005:677 JLINK_Go() >0x1D7 TIF> >0x1D7 TIF> >0x1D7 TIF> >0x1D7 TIF> >0x1D7 TIF> >0x1D7 TIF> >0x278 TIF> >0x1A4 TIF> >0x1A4 TIF> >0x1A4 TIF> >0x1A4 TIF> >0x1A4 TIF> >0x1A4 TIF> >0x1D7 TIF> (0031ms, 2611ms total)
T0CA8 005:708 JLINK_IsHalted() >0x13A TIF> >0x11E4 TIF> >0x1D5 TIF>  returns TRUE (0009ms, 2642ms total)
T0CA8 005:717 JLINK_ReadReg(R15)  returns 0x20000000 (0000ms, 2642ms total)
T0CA8 005:717 JLINK_ClrBPEx(BPHandle = 0x0000000C)  returns 0x00 (0000ms, 2642ms total)
T0CA8 005:717 JLINK_ReadReg(R0)  returns 0x00000000 (0000ms, 2642ms total)
T0CA8 005:769 JLINK_WriteMem(0x20000000, 0x0180 Bytes, ...) -- Data:  00 BE 0A E0 0D 78 2D 06 68 40 08 24 40 00 00 D3 ... >0x1582 TIF>  returns 0x180 (0005ms, 2642ms total)
T0CA8 005:774 JLINK_WriteReg(R0, 0x08000000)  returns 0x00 (0000ms, 2647ms total)
T0CA8 005:774 JLINK_WriteReg(R1, 0x00B71B00)  returns 0x00 (0000ms, 2647ms total)
T0CA8 005:774 JLINK_WriteReg(R2, 0x00000002)  returns 0x00 (0000ms, 2647ms total)
T0CA8 005:774 JLINK_WriteReg(R3, 0x00000000)  returns 0x00 (0000ms, 2647ms total)
T0CA8 005:774 JLINK_WriteReg(R4, 0x00000000)  returns 0x00 (0000ms, 2647ms total)
T0CA8 005:774 JLINK_WriteReg(R5, 0x00000000)  returns 0x00 (0000ms, 2647ms total)
T0CA8 005:774 JLINK_WriteReg(R6, 0x00000000)  returns 0x00 (0000ms, 2647ms total)
T0CA8 005:774 JLINK_WriteReg(R7, 0x00000000)  returns 0x00 (0000ms, 2647ms total)
T0CA8 005:774 JLINK_WriteReg(R8, 0x00000000)  returns 0x00 (0000ms, 2647ms total)
T0CA8 005:774 JLINK_WriteReg(R9, 0x2000017C)  returns 0x00 (0000ms, 2647ms total)
T0CA8 005:774 JLINK_WriteReg(R10, 0x00000000)  returns 0x00 (0000ms, 2647ms total)
T0CA8 005:774 JLINK_WriteReg(R11, 0x00000000)  returns 0x00 (0000ms, 2647ms total)
T0CA8 005:774 JLINK_WriteReg(R12, 0x00000000)  returns 0x00 (0000ms, 2647ms total)
T0CA8 005:774 JLINK_WriteReg(R13, 0x20001000)  returns 0x00 (0000ms, 2647ms total)
T0CA8 005:774 JLINK_WriteReg(R14, 0x20000001)  returns 0x00 (0000ms, 2647ms total)
T0CA8 005:774 JLINK_WriteReg(R15, 0x20000054)  returns 0x00 (0000ms, 2647ms total)
T0CA8 005:774 JLINK_WriteReg(XPSR, 0x01000000)  returns 0x00 (0000ms, 2647ms total)
T0CA8 005:774 JLINK_WriteReg(MSP, 0x20001000)  returns 0x00 (0000ms, 2647ms total)
T0CA8 005:774 JLINK_WriteReg(PSP, 0x20001000)  returns 0x00 (0000ms, 2647ms total)
T0CA8 005:774 JLINK_WriteReg(BASEPRI, 0x00000000)  returns 0x00 (0000ms, 2647ms total)
T0CA8 005:774 JLINK_WriteReg(CONTROL, 0x00000000)  returns 0x00 (0000ms, 2647ms total)
T0CA8 005:774 JLINK_WriteReg(FAULTMASK, 0x00000000)  returns 0x00 (0000ms, 2647ms total)
T0CA8 005:774 JLINK_WriteReg(BASEPRI_MAX, 0x00000000)  returns 0x00 (0000ms, 2647ms total)
T0CA8 005:774 JLINK_SetBPEx(Addr = 0x20000000, Type = 0xFFFFFFF2) >0x1D5 TIF> >0x1D7 TIF> >0x1D5 TIF> >0x1D7 TIF> >0x1D5 TIF>  returns 0x0000000D (0011ms, 2647ms total)
T0CA8 005:785 JLINK_Go() >0x1D7 TIF> >0x1D7 TIF> >0x1D7 TIF> >0x1D7 TIF> >0x1D7 TIF> >0x1D7 TIF> >0x1D7 TIF> >0x278 TIF> >0x1A4 TIF> >0x1A4 TIF> >0x1A4 TIF> >0x1A4 TIF> >0x1D7 TIF> (0026ms, 2658ms total)
T0CA8 005:811 JLINK_IsHalted() >0x13A TIF> >0x11E4 TIF> >0x1D5 TIF>  returns TRUE (0008ms, 2684ms total)
T0CA8 005:819 JLINK_ReadReg(R15)  returns 0x20000000 (0000ms, 2684ms total)
T0CA8 005:819 JLINK_ClrBPEx(BPHandle = 0x0000000D)  returns 0x00 (0000ms, 2684ms total)
T0CA8 005:819 JLINK_ReadReg(R0)  returns 0x00000000 (0000ms, 2684ms total)
T0CA8 005:819 JLINK_WriteMem(0x20000180, 0x0400 Bytes, ...) -- Data:  C8 C6 01 20 71 64 00 08 45 62 00 08 47 62 00 08 ... >0x36A2 TIF>  returns 0x400 (0011ms, 2684ms total)
T0CA8 005:830 JLINK_WriteReg(R0, 0x08000000)  returns 0x00 (0000ms, 2695ms total)
T0CA8 005:830 JLINK_WriteReg(R1, 0x00000400)  returns 0x00 (0000ms, 2695ms total)
T0CA8 005:830 JLINK_WriteReg(R2, 0x20000180)  returns 0x00 (0000ms, 2695ms total)
T0CA8 005:830 JLINK_WriteReg(R3, 0x00000000)  returns 0x00 (0000ms, 2695ms total)
T0CA8 005:830 JLINK_WriteReg(R4, 0x00000000)  returns 0x00 (0000ms, 2695ms total)
T0CA8 005:830 JLINK_WriteReg(R5, 0x00000000)  returns 0x00 (0000ms, 2695ms total)
T0CA8 005:830 JLINK_WriteReg(R6, 0x00000000)  returns 0x00 (0000ms, 2695ms total)
T0CA8 005:830 JLINK_WriteReg(R7, 0x00000000)  returns 0x00 (0000ms, 2695ms total)
T0CA8 005:830 JLINK_WriteReg(R8, 0x00000000)  returns 0x00 (0000ms, 2695ms total)
T0CA8 005:830 JLINK_WriteReg(R9, 0x2000017C)  returns 0x00 (0000ms, 2695ms total)
T0CA8 005:830 JLINK_WriteReg(R10, 0x00000000)  returns 0x00 (0000ms, 2695ms total)
T0CA8 005:830 JLINK_WriteReg(R11, 0x00000000)  returns 0x00 (0000ms, 2695ms total)
T0CA8 005:830 JLINK_WriteReg(R12, 0x00000000)  returns 0x00 (0000ms, 2695ms total)
T0CA8 005:830 JLINK_WriteReg(R13, 0x20001000)  returns 0x00 (0000ms, 2695ms total)
T0CA8 005:830 JLINK_WriteReg(R14, 0x20000001)  returns 0x00 (0000ms, 2695ms total)
T0CA8 005:830 JLINK_WriteReg(R15, 0x20000108)  returns 0x00 (0000ms, 2695ms total)
T0CA8 005:830 JLINK_WriteReg(XPSR, 0x01000000)  returns 0x00 (0000ms, 2695ms total)
T0CA8 005:830 JLINK_WriteReg(MSP, 0x20001000)  returns 0x00 (0000ms, 2695ms total)
T0CA8 005:830 JLINK_WriteReg(PSP, 0x20001000)  returns 0x00 (0000ms, 2695ms total)
T0CA8 005:830 JLINK_WriteReg(BASEPRI, 0x00000000)  returns 0x00 (0001ms, 2695ms total)
T0CA8 005:831 JLINK_WriteReg(CONTROL, 0x00000000)  returns 0x00 (0000ms, 2696ms total)
T0CA8 005:831 JLINK_WriteReg(FAULTMASK, 0x00000000)  returns 0x00 (0000ms, 2696ms total)
T0CA8 005:831 JLINK_WriteReg(BASEPRI_MAX, 0x00000000)  returns 0x00 (0000ms, 2696ms total)
T0CA8 005:831 JLINK_SetBPEx(Addr = 0x20000000, Type = 0xFFFFFFF2)  returns 0x0000000E (0000ms, 2696ms total)
T0CA8 005:831 JLINK_Go() >0x1D7 TIF> >0x1D7 TIF> >0x1D7 TIF> >0x1D7 TIF> >0x1D7 TIF> >0x1D7 TIF> >0x278 TIF> >0x1A4 TIF> >0x1A4 TIF> >0x1A4 TIF> >0x1A4 TIF> >0x1D7 TIF> (0024ms, 2696ms total)
T0CA8 005:855 JLINK_IsHalted() >0x13A TIF>  returns FALSE (0002ms, 2720ms total)
T0CA8 005:907 JLINK_IsHalted() >0x13A TIF> >0x11E4 TIF> >0x1D5 TIF>  returns TRUE (0008ms, 2720ms total)
T0CA8 005:915 JLINK_ReadReg(R15)  returns 0x20000000 (0000ms, 2720ms total)
T0CA8 005:916 JLINK_ClrBPEx(BPHandle = 0x0000000E)  returns 0x00 (0000ms, 2721ms total)
T0CA8 005:916 JLINK_ReadReg(R0)  returns 0x00000000 (0000ms, 2721ms total)
T0CA8 005:916 JLINK_WriteMem(0x20000180, 0x0400 Bytes, ...) -- Data:  3C 90 68 46 11 F0 14 FB 3D A8 0F C8 09 F0 34 FC ... >0x36A2 TIF>  returns 0x400 (0010ms, 2721ms total)
T0CA8 005:926 JLINK_WriteReg(R0, 0x08000400)  returns 0x00 (0000ms, 2731ms total)
T0CA8 005:926 JLINK_WriteReg(R1, 0x00000400)  returns 0x00 (0000ms, 2731ms total)
T0CA8 005:926 JLINK_WriteReg(R2, 0x20000180)  returns 0x00 (0000ms, 2731ms total)
T0CA8 005:926 JLINK_WriteReg(R3, 0x00000000)  returns 0x00 (0000ms, 2731ms total)
T0CA8 005:926 JLINK_WriteReg(R4, 0x00000000)  returns 0x00 (0000ms, 2731ms total)
T0CA8 005:926 JLINK_WriteReg(R5, 0x00000000)  returns 0x00 (0000ms, 2731ms total)
T0CA8 005:926 JLINK_WriteReg(R6, 0x00000000)  returns 0x00 (0000ms, 2731ms total)
T0CA8 005:926 JLINK_WriteReg(R7, 0x00000000)  returns 0x00 (0000ms, 2731ms total)
T0CA8 005:926 JLINK_WriteReg(R8, 0x00000000)  returns 0x00 (0000ms, 2731ms total)
T0CA8 005:926 JLINK_WriteReg(R9, 0x2000017C)  returns 0x00 (0001ms, 2731ms total)
T0CA8 005:927 JLINK_WriteReg(R10, 0x00000000)  returns 0x00 (0000ms, 2732ms total)
T0CA8 005:927 JLINK_WriteReg(R11, 0x00000000)  returns 0x00 (0000ms, 2732ms total)
T0CA8 005:927 JLINK_WriteReg(R12, 0x00000000)  returns 0x00 (0000ms, 2732ms total)
T0CA8 005:927 JLINK_WriteReg(R13, 0x20001000)  returns 0x00 (0000ms, 2732ms total)
T0CA8 005:927 JLINK_WriteReg(R14, 0x20000001)  returns 0x00 (0000ms, 2732ms total)
T0CA8 005:927 JLINK_WriteReg(R15, 0x20000108)  returns 0x00 (0000ms, 2732ms total)
T0CA8 005:927 JLINK_WriteReg(XPSR, 0x01000000)  returns 0x00 (0000ms, 2732ms total)
T0CA8 005:927 JLINK_WriteReg(MSP, 0x20001000)  returns 0x00 (0000ms, 2732ms total)
T0CA8 005:927 JLINK_WriteReg(PSP, 0x20001000)  returns 0x00 (0000ms, 2732ms total)
T0CA8 005:927 JLINK_WriteReg(BASEPRI, 0x00000000)  returns 0x00 (0000ms, 2732ms total)
T0CA8 005:927 JLINK_WriteReg(CONTROL, 0x00000000)  returns 0x00 (0000ms, 2732ms total)
T0CA8 005:927 JLINK_WriteReg(FAULTMASK, 0x00000000)  returns 0x00 (0000ms, 2732ms total)
